begin asc log
date Thu Apr 15 00:00:00 2025
base hex timestamps absolute
internal events logged
// ============================================================
// FILE   : vehicle_drive_session.log
// FORMAT : Vector ASC (SocketCAN Compatible)
// PURPOSE: Hackathon Demo — CAN Bus Anomaly Detection
// ANOMALIES INJECTED:
//   [A1] Out-of-Range     — Engine_RPM @ t=4.023105
//   [A2] Timing Flood     — Vehicle_Speed @ t=2.010–2.110
//   [A3] Logic Contradict — Speed+Engine+Gear @ t=4.023000
//   [A4] Missing Timeout  — 0x1B0 silent @ t=8.0–18.0
//   [A5] Data Corruption  — 0xFF/0x00/DLC=0 @ t=6.5–6.7
// ============================================================

// --- SECTION 1: NORMAL BASELINE (t=0.000 to t=1.000) ---

   0.000000 1  0C9  Rx  d 8  10 00 28 33 00 00 00 00
   0.000000 1  1A0  Rx  d 8  00 00 00 00 00 00 00 00
   0.000000 1  1B0  Rx  d 8  03 3C 00 00 00 00 00 00
   0.000000 1  200  Rx  d 4  64 00 00 00

   0.100000 1  0C9  Rx  d 8  20 00 30 50 01 40 00 00
   0.100000 1  1A0  Rx  d 8  D0 07 00 00 00 00 00 00
   0.100000 1  1B0  Rx  d 8  03 3C 00 00 00 00 00 00
   0.100000 1  200  Rx  d 4  64 00 00 00

   0.200000 1  0C9  Rx  d 8  40 00 32 60 01 60 00 00
   0.200000 1  1A0  Rx  d 8  A0 0F 00 00 00 00 00 00
   0.200000 1  1B0  Rx  d 8  03 40 00 00 00 00 00 00
   0.200000 1  200  Rx  d 4  60 00 00 00

   0.300000 1  0C9  Rx  d 8  60 00 34 64 01 80 00 00
   0.300000 1  1A0  Rx  d 8  70 17 00 00 00 00 00 00
   0.300000 1  1B0  Rx  d 8  03 44 00 00 00 00 00 00
   0.300000 1  200  Rx  d 4  5C 00 00 00

   0.400000 1  0C9  Rx  d 8  80 00 36 6E 01 A0 00 00
   0.400000 1  1A0  Rx  d 8  40 1F 00 00 00 00 00 00
   0.400000 1  1B0  Rx  d 8  03 48 00 00 00 00 00 00
   0.400000 1  200  Rx  d 4  58 00 00 00

   0.500000 1  0C9  Rx  d 8  A0 00 38 78 01 C0 00 00
   0.500000 1  1A0  Rx  d 8  10 27 00 00 00 00 00 00
   0.500000 1  1B0  Rx  d 8  03 4C 00 00 00 00 00 00
   0.500000 1  200  Rx  d 4  54 00 00 00

   0.600000 1  0C9  Rx  d 8  C0 00 3A 82 01 D0 00 00
   0.600000 1  1A0  Rx  d 8  E0 2E 00 00 00 00 00 00
   0.600000 1  1B0  Rx  d 8  03 50 00 00 00 00 00 00
   0.600000 1  200  Rx  d 4  50 00 00 00

   0.700000 1  0C9  Rx  d 8  E0 00 3C 8C 01 E0 00 00
   0.700000 1  1A0  Rx  d 8  B0 36 00 00 00 00 00 00
   0.700000 1  1B0  Rx  d 8  03 54 00 00 00 00 00 00
   0.700000 1  200  Rx  d 4  4C 00 00 00

   0.800000 1  0C9  Rx  d 8  00 01 3E 96 01 F0 00 00
   0.800000 1  1A0  Rx  d 8  80 3E 00 00 00 00 00 00
   0.800000 1  1B0  Rx  d 8  03 58 00 00 00 00 00 00
   0.800000 1  200  Rx  d 4  48 00 00 00

   0.900000 1  0C9  Rx  d 8  20 01 40 A0 01 FF 00 00
   0.900000 1  1A0  Rx  d 8  50 46 00 00 00 00 00 00
   0.900000 1  1B0  Rx  d 8  03 5C 00 00 00 00 00 00
   0.900000 1  200  Rx  d 4  44 00 00 00

   1.000000 1  0C9  Rx  d 8  40 01 42 AA 01 FF 00 00
   1.000000 1  1A0  Rx  d 8  20 4E 00 00 00 00 00 00
   1.000000 1  1B0  Rx  d 8  03 60 00 00 00 00 00 00
   1.000000 1  200  Rx  d 4  40 00 00 00

// --- SECTION 2: [A2] TIMING FLOOD — Vehicle_Speed 0x1A0 @ 1ms (expected 10ms) ---
// Expected period = 10ms | Observed = 1ms | Deviation = 900% → CRITICAL FLOODING

   2.010000 1  1A0  Rx  d 8  E0 2E 00 00 00 00 00 00
   2.011000 1  1A0  Rx  d 8  E0 2E 00 00 00 00 00 00
   2.012000 1  1A0  Rx  d 8  E0 2E 00 00 00 00 00 00
   2.013000 1  1A0  Rx  d 8  E0 2E 00 00 00 00 00 00
   2.014000 1  1A0  Rx  d 8  E0 2E 00 00 00 00 00 00
   2.015000 1  1A0  Rx  d 8  E0 2E 00 00 00 00 00 00
   2.016000 1  1A0  Rx  d 8  E0 2E 00 00 00 00 00 00
   2.017000 1  1A0  Rx  d 8  E0 2E 00 00 00 00 00 00
   2.018000 1  1A0  Rx  d 8  E0 2E 00 00 00 00 00 00
   2.019000 1  1A0  Rx  d 8  E0 2E 00 00 00 00 00 00
   2.020000 1  1A0  Rx  d 8  E0 2E 00 00 00 00 00 00
   2.021000 1  1A0  Rx  d 8  E0 2E 00 00 00 00 00 00
   2.022000 1  1A0  Rx  d 8  E0 2E 00 00 00 00 00 00
   2.023000 1  1A0  Rx  d 8  E0 2E 00 00 00 00 00 00
   2.024000 1  1A0  Rx  d 8  E0 2E 00 00 00 00 00 00
   2.025000 1  1A0  Rx  d 8  E0 2E 00 00 00 00 00 00
   2.026000 1  1A0  Rx  d 8  E0 2E 00 00 00 00 00 00
   2.027000 1  1A0  Rx  d 8  E0 2E 00 00 00 00 00 00
   2.028000 1  1A0  Rx  d 8  E0 2E 00 00 00 00 00 00
   2.029000 1  1A0  Rx  d 8  E0 2E 00 00 00 00 00 00
   2.030000 1  1A0  Rx  d 8  E0 2E 00 00 00 00 00 00
   2.031000 1  1A0  Rx  d 8  E0 2E 00 00 00 00 00 00
   2.032000 1  1A0  Rx  d 8  E0 2E 00 00 00 00 00 00
   2.033000 1  1A0  Rx  d 8  E0 2E 00 00 00 00 00 00
   2.034000 1  1A0  Rx  d 8  E0 2E 00 00 00 00 00 00
   2.035000 1  1A0  Rx  d 8  E0 2E 00 00 00 00 00 00
   2.036000 1  1A0  Rx  d 8  E0 2E 00 00 00 00 00 00
   2.037000 1  1A0  Rx  d 8  E0 2E 00 00 00 00 00 00
   2.038000 1  1A0  Rx  d 8  E0 2E 00 00 00 00 00 00
   2.039000 1  1A0  Rx  d 8  E0 2E 00 00 00 00 00 00
   2.040000 1  1A0  Rx  d 8  E0 2E 00 00 00 00 00 00
   2.041000 1  1A0  Rx  d 8  E0 2E 00 00 00 00 00 00
   2.042000 1  1A0  Rx  d 8  E0 2E 00 00 00 00 00 00
   2.043000 1  1A0  Rx  d 8  E0 2E 00 00 00 00 00 00
   2.044000 1  1A0  Rx  d 8  E0 2E 00 00 00 00 00 00
   2.045000 1  1A0  Rx  d 8  E0 2E 00 00 00 00 00 00
   2.046000 1  1A0  Rx  d 8  E0 2E 00 00 00 00 00 00
   2.047000 1  1A0  Rx  d 8  E0 2E 00 00 00 00 00 00
   2.048000 1  1A0  Rx  d 8  E0 2E 00 00 00 00 00 00
   2.049000 1  1A0  Rx  d 8  E0 2E 00 00 00 00 00 00
   2.050000 1  1A0  Rx  d 8  E0 2E 00 00 00 00 00 00
   2.051000 1  1A0  Rx  d 8  E0 2E 00 00 00 00 00 00
   2.052000 1  1A0  Rx  d 8  E0 2E 00 00 00 00 00 00
   2.053000 1  1A0  Rx  d 8  E0 2E 00 00 00 00 00 00
   2.054000 1  1A0  Rx  d 8  E0 2E 00 00 00 00 00 00
   2.055000 1  1A0  Rx  d 8  E0 2E 00 00 00 00 00 00
   2.056000 1  1A0  Rx  d 8  E0 2E 00 00 00 00 00 00
   2.057000 1  1A0  Rx  d 8  E0 2E 00 00 00 00 00 00
   2.058000 1  1A0  Rx  d 8  E0 2E 00 00 00 00 00 00
   2.059000 1  1A0  Rx  d 8  E0 2E 00 00 00 00 00 00
   2.060000 1  1A0  Rx  d 8  E0 2E 00 00 00 00 00 00
   2.061000 1  1A0  Rx  d 8  E0 2E 00 00 00 00 00 00
   2.062000 1  1A0  Rx  d 8  E0 2E 00 00 00 00 00 00
   2.063000 1  1A0  Rx  d 8  E0 2E 00 00 00 00 00 00
   2.064000 1  1A0  Rx  d 8  E0 2E 00 00 00 00 00 00
   2.065000 1  1A0  Rx  d 8  E0 2E 00 00 00 00 00 00
   2.066000 1  1A0  Rx  d 8  E0 2E 00 00 00 00 00 00
   2.067000 1  1A0  Rx  d 8  E0 2E 00 00 00 00 00 00
   2.068000 1  1A0  Rx  d 8  E0 2E 00 00 00 00 00 00
   2.069000 1  1A0  Rx  d 8  E0 2E 00 00 00 00 00 00
   2.070000 1  1A0  Rx  d 8  E0 2E 00 00 00 00 00 00
   2.071000 1  1A0  Rx  d 8  E0 2E 00 00 00 00 00 00
   2.072000 1  1A0  Rx  d 8  E0 2E 00 00 00 00 00 00
   2.073000 1  1A0  Rx  d 8  E0 2E 00 00 00 00 00 00
   2.074000 1  1A0  Rx  d 8  E0 2E 00 00 00 00 00 00
   2.075000 1  1A0  Rx  d 8  E0 2E 00 00 00 00 00 00
   2.076000 1  1A0  Rx  d 8  E0 2E 00 00 00 00 00 00
   2.077000 1  1A0  Rx  d 8  E0 2E 00 00 00 00 00 00
   2.078000 1  1A0  Rx  d 8  E0 2E 00 00 00 00 00 00
   2.079000 1  1A0  Rx  d 8  E0 2E 00 00 00 00 00 00
   2.080000 1  1A0  Rx  d 8  E0 2E 00 00 00 00 00 00
   2.081000 1  1A0  Rx  d 8  E0 2E 00 00 00 00 00 00
   2.082000 1  1A0  Rx  d 8  E0 2E 00 00 00 00 00 00
   2.083000 1  1A0  Rx  d 8  E0 2E 00 00 00 00 00 00
   2.084000 1  1A0  Rx  d 8  E0 2E 00 00 00 00 00 00
   2.085000 1  1A0  Rx  d 8  E0 2E 00 00 00 00 00 00
   2.086000 1  1A0  Rx  d 8  E0 2E 00 00 00 00 00 00
   2.087000 1  1A0  Rx  d 8  E0 2E 00 00 00 00 00 00
   2.088000 1  1A0  Rx  d 8  E0 2E 00 00 00 00 00 00
   2.089000 1  1A0  Rx  d 8  E0 2E 00 00 00 00 00 00
   2.090000 1  1A0  Rx  d 8  E0 2E 00 00 00 00 00 00
   2.091000 1  1A0  Rx  d 8  E0 2E 00 00 00 00 00 00
   2.092000 1  1A0  Rx  d 8  E0 2E 00 00 00 00 00 00
   2.093000 1  1A0  Rx  d 8  E0 2E 00 00 00 00 00 00
   2.094000 1  1A0  Rx  d 8  E0 2E 00 00 00 00 00 00
   2.095000 1  1A0  Rx  d 8  E0 2E 00 00 00 00 00 00
   2.096000 1  1A0  Rx  d 8  E0 2E 00 00 00 00 00 00
   2.097000 1  1A0  Rx  d 8  E0 2E 00 00 00 00 00 00
   2.098000 1  1A0  Rx  d 8  E0 2E 00 00 00 00 00 00
   2.099000 1  1A0  Rx  d 8  E0 2E 00 00 00 00 00 00
   2.100000 1  1A0  Rx  d 8  E0 2E 00 00 00 00 00 00

// --- Normal frames alongside flood ---
   2.000000 1  0C9  Rx  d 8  40 01 42 AA 01 FF 00 00
   2.000000 1  1B0  Rx  d 8  03 60 00 00 00 00 00 00
   2.100000 1  0C9  Rx  d 8  40 01 42 AA 01 FF 00 00
   2.100000 1  1B0  Rx  d 8  03 60 00 00 00 00 00 00

// --- SECTION 3: NORMAL RECOVERY (t=3.000 to t=4.000) ---

   3.000000 1  0C9  Rx  d 8  40 01 42 AA 01 FF 00 00
   3.000000 1  1A0  Rx  d 8  20 4E 00 00 00 00 00 00
   3.000000 1  1B0  Rx  d 8  03 60 00 00 00 00 00 00
   3.000000 1  200  Rx  d 4  40 00 00 00

   3.100000 1  0C9  Rx  d 8  60 01 44 B4 01 FF 00 00
   3.100000 1  1A0  Rx  d 8  F0 55 00 00 00 00 00 00
   3.100000 1  1B0  Rx  d 8  03 64 00 00 00 00 00 00
   3.100000 1  200  Rx  d 4  3C 00 00 00

   3.200000 1  0C9  Rx  d 8  80 01 46 BE 01 FF 00 00
   3.200000 1  1A0  Rx  d 8  C0 5D 00 00 00 00 00 00
   3.200000 1  1B0  Rx  d 8  03 68 00 00 00 00 00 00
   3.200000 1  200  Rx  d 4  38 00 00 00

   3.300000 1  0C9  Rx  d 8  A0 01 48 C8 01 FF 00 00
   3.300000 1  1A0  Rx  d 8  90 65 00 00 00 00 00 00
   3.300000 1  1B0  Rx  d 8  03 6C 00 00 00 00 00 00
   3.300000 1  200  Rx  d 4  34 00 00 00

   3.400000 1  0C9  Rx  d 8  C0 01 4A D2 01 FF 00 00
   3.400000 1  1A0  Rx  d 8  60 6D 00 00 00 00 00 00
   3.400000 1  1B0  Rx  d 8  03 70 00 00 00 00 00 00
   3.400000 1  200  Rx  d 4  30 00 00 00

   3.500000 1  0C9  Rx  d 8  E0 01 4C DC 01 FF 00 00
   3.500000 1  1A0  Rx  d 8  30 75 00 00 00 00 00 00
   3.500000 1  1B0  Rx  d 8  03 74 00 00 00 00 00 00
   3.500000 1  200  Rx  d 4  2C 00 00 00

   3.600000 1  0C9  Rx  d 8  00 02 4E E6 01 FF 00 00
   3.600000 1  1A0  Rx  d 8  00 7D 00 00 00 00 00 00
   3.600000 1  1B0  Rx  d 8  03 78 00 00 00 00 00 00
   3.600000 1  200  Rx  d 4  28 00 00 00

   3.700000 1  0C9  Rx  d 8  20 02 50 F0 01 FF 00 00
   3.700000 1  1A0  Rx  d 8  D0 84 00 00 00 00 00 00
   3.700000 1  1B0  Rx  d 8  03 7C 00 00 00 00 00 00
   3.700000 1  200  Rx  d 4  24 00 00 00

   3.800000 1  0C9  Rx  d 8  40 02 52 FA 01 FF 00 00
   3.800000 1  1A0  Rx  d 8  A0 8C 00 00 00 00 00 00
   3.800000 1  1B0  Rx  d 8  03 80 00 00 00 00 00 00
   3.800000 1  200  Rx  d 4  20 00 00 00

   3.900000 1  0C9  Rx  d 8  60 02 54 FF 01 FF 00 00
   3.900000 1  1A0  Rx  d 8  70 94 00 00 00 00 00 00
   3.900000 1  1B0  Rx  d 8  03 84 00 00 00 00 00 00
   3.900000 1  200  Rx  d 4  1C 00 00 00

// --- SECTION 4: [A1] OUT-OF-RANGE — Engine_RPM = 0xFFFF → 16383.75 RPM (Max=8000) ---
// AND [A3] LOGICAL CONTRADICTION — Speed=120km/h + Engine=OFF + Gear=PARK

   4.023000 1  1A0  Rx  d 8  E0 2E 00 00 00 00 00 00
   // Speed = 0x2EE0 = 12000 raw → 12000 × 0.01 = 120.00 km/h ✓ (in range)
   // Engine_Status bit = 0 → OFF  ⚠ CONTRADICTION with Speed>0
   // Gear = 0x0 = PARK            ⚠ CONTRADICTION with Speed>0

   4.023000 1  0C9  Rx  d 8  00 00 28 00 00 00 00 00
   // Engine_RPM = 0x0000 = 0 RPM (normal)
   // Engine_Status (bit24) = 0 = OFF ← triggers R-001, R-002

   4.023000 1  1B0  Rx  d 8  00 3C 00 00 00 00 00 00
   // Gear_Position = 0x0 = PARK ← triggers R-002

   4.023105 1  0C9  Rx  d 8  FF FF 00 00 AA BB CC DD
   // [A1] Engine_RPM raw = 0xFFFF = 65535 → 65535×0.25+0 = 16383.75 RPM
   // Valid Max = 8000 RPM → ANOMALY CRITICAL

// --- SECTION 5: NORMAL RECOVERY (t=4.100 to t=6.000) ---

   4.100000 1  0C9  Rx  d 8  40 00 32 60 01 60 00 00
   4.100000 1  1A0  Rx  d 8  A0 0F 00 00 00 00 00 00
   4.100000 1  1B0  Rx  d 8  03 40 00 00 00 00 00 00
   4.100000 1  200  Rx  d 4  60 00 00 00

   4.200000 1  0C9  Rx  d 8  60 00 34 64 01 80 00 00
   4.200000 1  1A0  Rx  d 8  70 17 00 00 00 00 00 00
   4.200000 1  1B0  Rx  d 8  03 44 00 00 00 00 00 00
   4.200000 1  200  Rx  d 4  5C 00 00 00

   4.300000 1  0C9  Rx  d 8  80 00 36 6E 01 A0 00 00
   4.300000 1  1A0  Rx  d 8  40 1F 00 00 00 00 00 00
   4.300000 1  1B0  Rx  d 8  03 48 00 00 00 00 00 00
   4.300000 1  200  Rx  d 4  58 00 00 00

   4.400000 1  0C9  Rx  d 8  A0 00 38 78 01 C0 00 00
   4.400000 1  1A0  Rx  d 8  10 27 00 00 00 00 00 00
   4.400000 1  1B0  Rx  d 8  03 4C 00 00 00 00 00 00
   4.400000 1  200  Rx  d 4  54 00 00 00

   4.500000 1  0C9  Rx  d 8  C0 00 3A 82 01 D0 00 00
   4.500000 1  1A0  Rx  d 8  E0 2E 00 00 00 00 00 00
   4.500000 1  1B0  Rx  d 8  03 50 00 00 00 00 00 00
   4.500000 1  200  Rx  d 4  50 00 00 00

   5.000000 1  0C9  Rx  d 8  40 01 42 AA 01 FF 00 00
   5.000000 1  1A0  Rx  d 8  20 4E 00 00 00 00 00 00
   5.000000 1  1B0  Rx  d 8  03 60 00 00 00 00 00 00
   5.000000 1  200  Rx  d 4  40 00 00 00

   5.500000 1  0C9  Rx  d 8  40 01 42 AA 01 FF 00 00
   5.500000 1  1A0  Rx  d 8  20 4E 00 00 00 00 00 00
   5.500000 1  1B0  Rx  d 8  03 60 00 00 00 00 00 00
   5.500000 1  200  Rx  d 4  40 00 00 00

// --- SECTION 6: [A5] DATA CORRUPTION — 0xFF / 0x00 / DLC=0 ---

   6.500000 1  0C9  Rx  d 8  FF FF FF FF FF FF FF FF
   // [A5-a] ALL BYTES = 0xFF → Bus stuck HIGH (hardware fault) CRITICAL

   6.600000 1  1A0  Rx  d 8  00 00 00 00 00 00 00 00
   // [A5-b] ALL BYTES = 0x00 → Bus stuck LOW / ECU reset CRITICAL

   6.700000 1  0C9  Rx  d 0
   // [A5-c] DLC = 0 → Empty frame (unexpected) HIGH

   6.750000 1  1A0  Rx  d 8  AA 55 AA 55 AA 55 AA 55
   // [A5-d] Alternating 0xAA/0x55 → Test pattern on live bus MEDIUM

// --- SECTION 7: NORMAL RECOVERY (t=7.000 to t=8.000) ---

   7.000000 1  0C9  Rx  d 8  40 01 42 AA 01 FF 00 00
   7.000000 1  1A0  Rx  d 8  20 4E 00 00 00 00 00 00
   7.000000 1  1B0  Rx  d 8  03 60 00 00 00 00 00 00
   7.000000 1  200  Rx  d 4  40 00 00 00

   7.100000 1  0C9  Rx  d 8  60 01 44 B4 01 FF 00 00
   7.100000 1  1A0  Rx  d 8  F0 55 00 00 00 00 00 00
   7.100000 1  1B0  Rx  d 8  03 64 00 00 00 00 00 00
   7.100000 1  200  Rx  d 4  3C 00 00 00

   7.500000 1  0C9  Rx  d 8  40 01 42 AA 01 FF 00 00
   7.500000 1  1A0  Rx  d 8  20 4E 00 00 00 00 00 00
   7.500000 1  1B0  Rx  d 8  03 60 00 00 00 00 00 00
   7.500000 1  200  Rx  d 4  40 00 00 00

// --- SECTION 8: [A4] MISSING MESSAGE — 0x1B0 goes SILENT (t=8.0 to t=18.0) ---
// Expected period = 10ms | Timeout threshold = 30ms (3× period)
// 0x1B0 disappears for 10 seconds → CRITICAL ECU crash / bus disconnect

   8.000000 1  0C9  Rx  d 8  40 01 42 AA 01 FF 00 00
   8.000000 1  1A0  Rx  d 8  20 4E 00 00 00 00 00 00
   8.000000 1  1B0  Rx  d 8  03 60 00 00 00 00 00 00
   // ↑ Last seen 0x1B0 frame — after this, 0x1B0 is MISSING

   8.100000 1  0C9  Rx  d 8  40 01 42 AA 01 FF 00 00
   8.100000 1  1A0  Rx  d 8  20 4E 00 00 00 00 00 00
   // NO 1B0 here

   8.500000 1  0C9  Rx  d 8  40 01 42 AA 01 FF 00 00
   8.500000 1  1A0  Rx  d 8  20 4E 00 00 00 00 00 00
   // NO 1B0 here

   9.000000 1  0C9  Rx  d 8  40 01 42 AA 01 FF 00 00
   9.000000 1  1A0  Rx  d 8  20 4E 00 00 00 00 00 00
   // NO 1B0 here

  10.000000 1  0C9  Rx  d 8  40 01 42 AA 01 FF 00 00
  10.000000 1  1A0  Rx  d 8  20 4E 00 00 00 00 00 00
  // NO 1B0 here

  12.000000 1  0C9  Rx  d 8  40 01 42 AA 01 FF 00 00
  12.000000 1  1A0  Rx  d 8  20 4E 00 00 00 00 00 00
  // NO 1B0 here

  15.000000 1  0C9  Rx  d 8  40 01 42 AA 01 FF 00 00
  15.000000 1  1A0  Rx  d 8  20 4E 00 00 00 00 00 00
  // NO 1B0 here

  18.000000 1  0C9  Rx  d 8  40 01 42 AA 01 FF 00 00
  18.000000 1  1A0  Rx  d 8  20 4E 00 00 00 00 00 00
  18.000000 1  1B0  Rx  d 8  03 60 00 00 00 00 00 00
  // ↑ 0x1B0 RESUMES after 10 seconds silence

// --- SECTION 9: CLEAN LOG (TC05 — No Anomalies, t=20.000 onwards) ---

  20.000000 1  0C9  Rx  d 8  40 01 42 AA 01 FF 00 00
  20.000000 1  1A0  Rx  d 8  20 4E 00 00 00 00 00 00
  20.000000 1  1B0  Rx  d 8  03 60 00 00 00 00 00 00
  20.000000 1  200  Rx  d 4  40 00 00 00

  20.100000 1  0C9  Rx  d 8  40 01 42 AA 01 FF 00 00
  20.100000 1  1A0  Rx  d 8  20 4E 00 00 00 00 00 00
  20.100000 1  1B0  Rx  d 8  03 60 00 00 00 00 00 00
  20.100000 1  200  Rx  d 4  40 00 00 00

  20.200000 1  0C9  Rx  d 8  40 01 42 AA 01 FF 00 00
  20.200000 1  1A0  Rx  d 8  20 4E 00 00 00 00 00 00
  20.200000 1  1B0  Rx  d 8  03 60 00 00 00 00 00 00
  20.200000 1  200  Rx  d 4  40 00 00 00

  20.300000 1  0C9  Rx  d 8  40 01 42 AA 01 FF 00 00
  20.300000 1  1A0  Rx  d 8  20 4E 00 00 00 00 00 00
  20.300000 1  1B0  Rx  d 8  03 60 00 00 00 00 00 00
  20.300000 1  200  Rx  d 4  40 00 00 00

  20.400000 1  0C9  Rx  d 8  40 01 42 AA 01 FF 00 00
  20.400000 1  1A0  Rx  d 8  20 4E 00 00 00 00 00 00
  20.400000 1  1B0  Rx  d 8  03 60 00 00 00 00 00 00
  20.400000 1  200  Rx  d 4  40 00 00 00

  20.500000 1  0C9  Rx  d 8  40 01 42 AA 01 FF 00 00
  20.500000 1  1A0  Rx  d 8  20 4E 00 00 00 00 00 00
  20.500000 1  1B0  Rx  d 8  03 60 00 00 00 00 00 00
  20.500000 1  200  Rx  d 4  40 00 00 00

  20.600000 1  0C9  Rx  d 8  40 01 42 AA 01 FF 00 00
  20.600000 1  1A0  Rx  d 8  20 4E 00 00 00 00 00 00
  20.600000 1  1B0  Rx  d 8  03 60 00 00 00 00 00 00
  20.600000 1  200  Rx  d 4  40 00 00 00

  20.700000 1  0C9  Rx  d 8  40 01 42 AA 01 FF 00 00
  20.700000 1  1A0  Rx  d 8  20 4E 00 00 00 00 00 00
  20.700000 1  1B0  Rx  d 8  03 60 00 00 00 00 00 00
  20.700000 1  200  Rx  d 4  40 00 00 00

  20.800000 1  0C9  Rx  d 8  40 01 42 AA 01 FF 00 00
  20.800000 1  1A0  Rx  d 8  20 4E 00 00 00 00 00 00
  20.800000 1  1B0  Rx  d 8  03 60 00 00 00 00 00 00
  20.800000 1  200  Rx  d 4  40 00 00 00

  20.900000 1  0C9  Rx  d 8  40 01 42 AA 01 FF 00 00
  20.900000 1  1A0  Rx  d 8  20 4E 00 00 00 00 00 00
  20.900000 1  1B0  Rx  d 8  03 60 00 00 00 00 00 00
  20.900000 1  200  Rx  d 4  40 00 00 00

  21.000000 1  0C9  Rx  d 8  40 01 42 AA 01 FF 00 00
  21.000000 1  1A0  Rx  d 8  20 4E 00 00 00 00 00 00
  21.000000 1  1B0  Rx  d 8  03 60 00 00 00 00 00 00
  21.000000 1  200  Rx  d 4  40 00 00 00

end asc log